
T207C 000:287 SEGGER J-Link V4.68a Log File (0000ms, 0287ms total)
T207C 000:287 DLL Compiled: Apr 12 2013 13:26:50 (0000ms, 0287ms total)
T207C 000:287 Logging started @ 2019-04-26 17:22 (0000ms, 0287ms total)
T207C 000:287 JLINK_SetWarnOutHandler(...) (0000ms, 0287ms total)
T207C 000:287 JLINK_OpenEx(...)
Firmware: J-Link V9 compiled Sep  1 2016 18:29:50
Hardware: V9.40
S/N: 59400616
Feature(s): RDI, FlashBP, FlashDL, JFlash, GDB  returns O.K. (0035ms, 0322ms total)
T207C 000:322 JLINK_SetErrorOutHandler(...) (0000ms, 0322ms total)
T207C 000:322 JLINK_ExecCommand("ProjectFile = "D:\VANCH\747\747-内部Flash-外部RTC-20190415\PRJ\JLinkSettings.ini"", ...)  returns 0x00 (0000ms, 0322ms total)
T207C 000:322 JLINK_ExecCommand("Device = STM32F107VC", ...)
                JLINK_AddMirrorAreaEx(Addr = 0x00000000, Size = 0x00000000) (0000ms, 0000ms total)
              Device "STM32F107VC" selected (256 KB flash, 64 KB RAM).  returns 0x00 (0001ms, 0323ms total)
T207C 000:323 JLINK_ExecCommand("DisableConnectionTimeout", ...)  returns 0x00 (0000ms, 0323ms total)
T207C 000:323 JLINK_GetHardwareVersion()  returns 0x16F30 (0000ms, 0323ms total)
T207C 000:323 JLINK_GetDLLVersion()  returns 46801 (0000ms, 0323ms total)
T207C 000:323 JLINK_GetFirmwareString(...) (0000ms, 0323ms total)
T207C 000:324 JLINK_GetDLLVersion()  returns 46801 (0000ms, 0323ms total)
T207C 000:324 JLINK_GetCompileDateTime() (0000ms, 0323ms total)
T207C 000:324 JLINK_GetFirmwareString(...) (0000ms, 0323ms total)
T207C 000:324 JLINK_GetHardwareVersion()  returns 0x16F30 (0000ms, 0323ms total)
T207C 000:324 JLINK_TIF_Select(JLINKARM_TIF_SWD)  returns 0x00 (0009ms, 0332ms total)
T207C 000:333 JLINK_SetSpeed(500) (0001ms, 0333ms total)
T207C 000:334 JLINK_GetId() >0x108 TIF>Found SWD-DP with ID 0x1BA01477 >0x0D TIF> >0x28 TIF> >0x0D TIF> >0x28 TIF> >0x0D TIF> >0x21 TIF> >0x0D TIF> >0x28 TIF> >0x0D TIF> >0x28 TIF> >0x0D TIF> >0x28 TIF> >0x0D TIF> >0x21 TIF> >0x0D TIF> >0x21 TIF> >0x0D TIF> >0x28 TIF> >0x0D TIF> >0x21 TIF> >0x0D TIF> >0x21 TIF> >0x108 TIF>Found SWD-DP with ID 0x1BA01477 >0x0D TIF> >0x21 TIF> >0x0D TIF> >0x28 TIF> >0x0D TIF> >0x28 TIF> >0x0D TIF> >0x21 TIF> >0x0D TIF> >0x21 TIF> >0x0D TIF> >0x28 TIF> >0x0D TIF> >0x21 TIF>
 >0x0D TIF> >0x21 TIF> >0x0D TIF> >0x21 TIF> >0x0D TIF> >0x21 TIF> >0x0D TIF> >0x21 TIF> >0x0D TIF> >0x28 TIF> >0x0D TIF> >0x28 TIF> >0x0D TIF> >0x21 TIF> >0x0D TIF> >0x21 TIF> >0x0D TIF> >0x28 TIF> >0x0D TIF> >0x21 TIF> >0x0D TIF> >0x21 TIF> >0x0D TIF> >0x28 TIF> >0x0D TIF> >0x28 TIF> >0x0D TIF> >0x28 TIF> >0x0D TIF> >0x21 TIF> >0x0D TIF> >0x21 TIF> >0x0D TIF> >0x28 TIF> >0x0D TIF> >0x28 TIF> >0x0D TIF> >0x28 TIF> >0x0D TIF> >0x21 TIF> >0x0D TIF> >0x21 TIF> >0x0D TIF> >0x21 TIF>TPIU fitted.ETM fitted.
 >0x0D TIF> >0x28 TIF> >0x0D TIF> >0x21 TIF> >0x0D TIF> >0x21 TIF> >0x0D TIF> >0x28 TIF> >0x0D TIF> >0x21 TIF> >0x0D TIF> >0x21 TIF>FPUnit: 6 code (BP) slots and 2 literal slots >0x0D TIF> >0x28 TIF> >0x0D TIF> >0x21 TIF> >0x0D TIF> >0x21 TIF> >0x0D TIF> >0x28 TIF> >0x0D TIF> >0x21 TIF> >0x0D TIF> >0x21 TIF> >0x0D TIF> >0x28 TIF> >0x0D TIF> >0x21 TIF> >0x0D TIF> >0x21 TIF> >0x0D TIF> >0x28 TIF> >0x0D TIF> >0x21 TIF> >0x0D TIF> >0x21 TIF>Found Cortex-M3 r1p1, Little endian. >0x0D TIF> >0x21 TIF>
  returns 0x1BA01477 (0202ms, 0535ms total)
T207C 000:536 JLINK_GetDeviceFamily()  returns 3 (0000ms, 0535ms total)
T207C 000:536 JLINK_ReadMem (0xE00FFFF0, 0x0010 Bytes, ...) -- CPU is running -- CPU_ReadMem(16 bytes @ 0xE00FFFF0) -- Data:  0D 00 00 00 10 00 00 00 05 00 00 00 B1 00 00 00  returns 0x00 (0004ms, 0539ms total)
T207C 000:540 JLINK_ReadMem (0xE00FFFD0, 0x0020 Bytes, ...) -- CPU is running -- CPU_ReadMem(32 bytes @ 0xE00FFFD0) -- Data:  00 00 00 00 00 00 00 00 00 00 00 00 00 00 00 00 ...  returns 0x00 (0002ms, 0541ms total)
T207C 000:542 JLINK_ReadMem (0xE00FF000, 0x0018 Bytes, ...) -- CPU is running -- CPU_ReadMem(24 bytes @ 0xE00FF000) -- Data:  03 F0 F0 FF 03 20 F0 FF 03 30 F0 FF 03 10 F0 FF ...  returns 0x00 (0002ms, 0543ms total)
T207C 000:544 JLINK_ReadMemU32(0xE000ED00, 0x0001 Items, ...) -- CPU is running -- CPU_ReadMem(4 bytes @ 0xE000ED00) -- Data:  31 C2 1F 41  returns 0x01 (0002ms, 0545ms total)
T207C 000:546 JLINK_SetResetType(JLINKARM_RESET_TYPE_NORMAL)  returns JLINKARM_RESET_TYPE_NORMAL (0000ms, 0545ms total)
T207C 000:547 JLINK_Reset() -- CPU is running -- CPU_WriteMem(4 bytes @ 0xE000EDF0) -- CPU is running -- CPU_WriteMem(4 bytes @ 0xE000EDFC) >0x35 TIF> -- CPU is running -- CPU_WriteMem(4 bytes @ 0xE000ED0C) -- CPU is running -- CPU_ReadMem(4 bytes @ 0xE000EDF0) -- CPU is running -- CPU_ReadMem(4 bytes @ 0xE000EDF0) -- CPU is running -- CPU_WriteMem(4 bytes @ 0xE000EDF0) -- CPU is running -- CPU_WriteMem(4 bytes @ 0xE000EDFC) -- CPU is running -- CPU_ReadMem(4 bytes @ 0xE000EDF0)
 -- CPU_WriteMem(4 bytes @ 0xE0002000) (0039ms, 0584ms total)
T207C 000:586 JLINK_ReadReg(R15)  returns 0x080001EC (0000ms, 0584ms total)
T207C 000:586 JLINK_ReadReg(XPSR)  returns 0x01000000 (0000ms, 0584ms total)
T207C 000:586 JLINK_Halt()  returns 0x00 (0000ms, 0584ms total)
T207C 000:586 JLINK_IsHalted()  returns TRUE (0000ms, 0584ms total)
T207C 000:586 JLINK_ReadMemU32(0xE000EDF0, 0x0001 Items, ...) -- CPU_ReadMem(4 bytes @ 0xE000EDF0) -- Data:  03 00 03 00  returns 0x01 (0002ms, 0586ms total)
T207C 000:588 JLINK_WriteU32(0xE000EDF0, 0xA05F0003) -- CPU_WriteMem(4 bytes @ 0xE000EDF0)  returns 0x00 (0002ms, 0588ms total)
T207C 000:590 JLINK_WriteU32(0xE000EDFC, 0x01000000) -- CPU_WriteMem(4 bytes @ 0xE000EDFC)  returns 0x00 (0002ms, 0590ms total)
T207C 000:593 JLINK_GetHWStatus(...)  returns 0x00 (0000ms, 0590ms total)
T207C 000:593 JLINK_GetNumBPUnits(Type = 0xFFFFFF00)  returns 0x06 (0000ms, 0590ms total)
T207C 000:593 JLINK_GetNumBPUnits(Type = 0xF0)  returns 0x2000 (0000ms, 0590ms total)
T207C 000:593 JLINK_GetNumWPUnits()  returns 0x04 (0000ms, 0590ms total)
T207C 000:594 JLINK_GetSpeed()  returns 0x1F4 (0000ms, 0590ms total)
T207C 000:594 JLINK_ReadMemU32(0xE000E004, 0x0001 Items, ...) -- CPU_ReadMem(4 bytes @ 0xE000E004) -- Data:  02 00 00 00  returns 0x01 (0001ms, 0591ms total)
T207C 000:595 JLINK_ReadMemU32(0xE000E004, 0x0001 Items, ...) -- CPU_ReadMem(4 bytes @ 0xE000E004) -- Data:  02 00 00 00  returns 0x01 (0002ms, 0593ms total)
T207C 000:597 JLINK_WriteMem(0xE0001000, 0x001C Bytes, ...) -- Data:  01 00 00 00 00 00 00 00 00 00 00 00 00 00 00 00 ... -- CPU_WriteMem(28 bytes @ 0xE0001000)  returns 0x1C (0003ms, 0596ms total)
T207C 000:600 JLINK_ReadMem (0xE0001000, 0x001C Bytes, ...) -- CPU_ReadMem(28 bytes @ 0xE0001000) -- Data:  01 00 00 40 00 00 00 00 00 00 00 00 00 00 00 00 ...  returns 0x00 (0002ms, 0598ms total)
T207C 000:602 JLINK_ReadReg(R15)  returns 0x080001EC (0000ms, 0598ms total)
T207C 000:602 JLINK_ReadReg(XPSR)  returns 0x01000000 (0000ms, 0598ms total)
T207C 000:689 JLINK_SetResetType(JLINKARM_RESET_TYPE_NORMAL)  returns JLINKARM_RESET_TYPE_NORMAL (0000ms, 0598ms total)
T207C 000:689 JLINK_Reset() -- CPU_WriteMem(4 bytes @ 0xE000EDF0) -- CPU_WriteMem(4 bytes @ 0xE000EDFC) >0x35 TIF> -- CPU_WriteMem(4 bytes @ 0xE000ED0C) -- CPU_ReadMem(4 bytes @ 0xE000EDF0) -- CPU_ReadMem(4 bytes @ 0xE000EDF0) -- CPU_WriteMem(4 bytes @ 0xE000EDF0) -- CPU_WriteMem(4 bytes @ 0xE000EDFC) -- CPU is running -- CPU_ReadMem(4 bytes @ 0xE000EDF0) -- CPU_WriteMem(4 bytes @ 0xE0002000) (0048ms, 0646ms total)
T207C 000:737 JLINK_ReadReg(R15)  returns 0x080001EC (0000ms, 0646ms total)
T207C 000:737 JLINK_ReadReg(XPSR)  returns 0x01000000 (0000ms, 0646ms total)
T207C 000:737 JLINK_ReadMem (0x080001EC, 0x003C Bytes, ...) -- CPU_ReadMem(128 bytes @ 0x080001C0) -- Updating C cache (128 bytes @ 0x080001C0) -- Read from C cache (60 bytes @ 0x080001EC) -- Data:  09 48 80 47 09 48 00 47 FE E7 FE E7 FE E7 FE E7 ...  returns 0x00 (0014ms, 0660ms total)
T207C 001:465 JLINK_ReadMem (0x0800A672, 0x0002 Bytes, ...) -- CPU_ReadMem(64 bytes @ 0x0800A640) -- Updating C cache (64 bytes @ 0x0800A640) -- Read from C cache (2 bytes @ 0x0800A672) -- Data:  09 48  returns 0x00 (0004ms, 0664ms total)
T207C 001:469 JLINK_ReadMem (0x0800A674, 0x003C Bytes, ...) -- CPU_ReadMem(64 bytes @ 0x0800A680) -- Updating C cache (64 bytes @ 0x0800A680) -- Read from C cache (60 bytes @ 0x0800A674) -- Data:  90 F8 4C 00 20 B9 06 F0 1F F8 02 F0 E3 FB 00 BF ...  returns 0x00 (0004ms, 0668ms total)
T207C 001:593 JLINK_ReadMem (0x20000084, 0x0004 Bytes, ...) -- CPU_ReadMem(64 bytes @ 0x20000080) -- Updating C cache (64 bytes @ 0x20000080) -- Read from C cache (4 bytes @ 0x20000084) -- Data:  3F 3D 00 00  returns 0x00 (0003ms, 0671ms total)
T4858 001:638 JLINK_SetBPEx(Addr = 0x0800A600, Type = 0xFFFFFFF2)  returns 0x00000001 (0000ms, 0671ms total)
T4858 001:638 JLINK_SetBPEx(Addr = 0x0800A648, Type = 0xFFFFFFF2)  returns 0x00000002 (0000ms, 0671ms total)
T4858 001:638 JLINK_Go() -- CPU_WriteMem(4 bytes @ 0xE0002008) -- CPU_WriteMem(4 bytes @ 0xE000200C) -- CPU_WriteMem(4 bytes @ 0xE0002010) -- CPU_WriteMem(4 bytes @ 0xE0002014) -- CPU_WriteMem(4 bytes @ 0xE0002018) -- CPU_WriteMem(4 bytes @ 0xE000201C) (0017ms, 0688ms total)
T4858 001:755 JLINK_IsHalted()  returns FALSE (0001ms, 0689ms total)
T4858 001:856 JLINK_IsHalted()  returns FALSE (0001ms, 0689ms total)
T4858 001:957 JLINK_IsHalted()  returns FALSE (0002ms, 0690ms total)
T4858 002:059 JLINK_IsHalted()  returns FALSE (0001ms, 0689ms total)
T4858 002:160 JLINK_IsHalted()  returns FALSE (0001ms, 0689ms total)
T4858 002:261 JLINK_ReadMemU32(0xE0001004, 0x0001 Items, ...) -- CPU is running -- CPU_ReadMem(4 bytes @ 0xE0001004) -- Data:  99 54 9A 02  returns 0x01 (0002ms, 0690ms total)
T4858 002:263 JLINK_IsHalted()  returns FALSE (0002ms, 0692ms total)
T4858 002:365 JLINK_IsHalted()  returns FALSE (0002ms, 0692ms total)
T4858 002:467 JLINK_IsHalted()  returns TRUE (0014ms, 0704ms total)
T4858 002:481 JLINK_Halt()  returns 0x00 (0000ms, 0690ms total)
T4858 002:481 JLINK_IsHalted()  returns TRUE (0000ms, 0690ms total)
T4858 002:481 JLINK_IsHalted()  returns TRUE (0000ms, 0690ms total)
T4858 002:481 JLINK_IsHalted()  returns TRUE (0000ms, 0690ms total)
T4858 002:481 JLINK_ReadReg(R15)  returns 0x0800A600 (0000ms, 0690ms total)
T4858 002:481 JLINK_ReadReg(XPSR)  returns 0x21000000 (0000ms, 0690ms total)
T4858 002:481 JLINK_ClrBPEx(BPHandle = 0x00000001)  returns 0x00 (0000ms, 0690ms total)
T4858 002:481 JLINK_ClrBPEx(BPHandle = 0x00000002)  returns 0x00 (0000ms, 0690ms total)
T4858 002:481 JLINK_ReadMemU32(0xE000ED30, 0x0001 Items, ...) -- CPU_ReadMem(4 bytes @ 0xE000ED30) -- Data:  02 00 00 00  returns 0x01 (0002ms, 0692ms total)
T4858 002:483 JLINK_ReadMemU32(0xE0001028, 0x0001 Items, ...) -- CPU_ReadMem(4 bytes @ 0xE0001028) -- Data:  00 00 00 00  returns 0x01 (0002ms, 0694ms total)
T4858 002:485 JLINK_ReadMemU32(0xE0001038, 0x0001 Items, ...) -- CPU_ReadMem(4 bytes @ 0xE0001038) -- Data:  00 02 00 00  returns 0x01 (0002ms, 0696ms total)
T4858 002:487 JLINK_ReadMemU32(0xE0001048, 0x0001 Items, ...) -- CPU_ReadMem(4 bytes @ 0xE0001048) -- Data:  00 00 00 00  returns 0x01 (0002ms, 0698ms total)
T4858 002:489 JLINK_ReadMemU32(0xE0001058, 0x0001 Items, ...) -- CPU_ReadMem(4 bytes @ 0xE0001058) -- Data:  00 00 00 00  returns 0x01 (0002ms, 0700ms total)
T4858 002:491 JLINK_ReadReg(R0)  returns 0x2000EDD8 (0000ms, 0700ms total)
T4858 002:491 JLINK_ReadReg(R1)  returns 0x2000EFD8 (0000ms, 0700ms total)
T4858 002:491 JLINK_ReadReg(R2)  returns 0x2000EFD8 (0000ms, 0700ms total)
T4858 002:491 JLINK_ReadReg(R3)  returns 0x2000EFD8 (0000ms, 0700ms total)
T4858 002:491 JLINK_ReadReg(R4)  returns 0x00000000 (0000ms, 0700ms total)
T4858 002:491 JLINK_ReadReg(R5)  returns 0x2000ED74 (0000ms, 0700ms total)
T4858 002:491 JLINK_ReadReg(R6)  returns 0x00000000 (0000ms, 0700ms total)
T4858 002:491 JLINK_ReadReg(R7)  returns 0x00000000 (0000ms, 0700ms total)
T4858 002:491 JLINK_ReadReg(R8)  returns 0x00000000 (0000ms, 0700ms total)
T4858 002:491 JLINK_ReadReg(R9)  returns 0x73435782 (0000ms, 0700ms total)
T4858 002:491 JLINK_ReadReg(R10)  returns 0x08010910 (0000ms, 0700ms total)
T4858 002:491 JLINK_ReadReg(R11)  returns 0x00000000 (0000ms, 0700ms total)
T4858 002:491 JLINK_ReadReg(R12)  returns 0x2000EDB4 (0000ms, 0700ms total)
T4858 002:491 JLINK_ReadReg(R13)  returns 0x2000F3D8 (0000ms, 0700ms total)
T4858 002:491 JLINK_ReadReg(R14)  returns 0x0800321B (0000ms, 0700ms total)
T4858 002:491 JLINK_ReadReg(R15)  returns 0x0800A600 (0000ms, 0700ms total)
T4858 002:491 JLINK_ReadReg(XPSR)  returns 0x21000000 (0000ms, 0700ms total)
T4858 002:491 JLINK_ReadReg(MSP)  returns 0x2000F3D8 (0000ms, 0700ms total)
T4858 002:491 JLINK_ReadReg(PSP)  returns 0x5F038578 (0000ms, 0700ms total)
T4858 002:491 JLINK_ReadReg(CFBP)  returns 0x00000000 (0000ms, 0700ms total)
T207C 002:495 JLINK_ReadMemU32(0xE0001004, 0x0001 Items, ...) -- CPU_ReadMem(4 bytes @ 0xE0001004) -- Data:  75 08 77 03  returns 0x01 (0001ms, 0701ms total)
T207C 002:497 JLINK_ReadMem (0x0800A50C, 0x003C Bytes, ...) -- CPU_ReadMem(128 bytes @ 0x0800A500) -- Updating C cache (128 bytes @ 0x0800A500) -- Read from C cache (60 bytes @ 0x0800A50C) -- Data:  2D E9 F0 43 87 B0 81 46 00 26 00 25 01 A8 FA F7 ...  returns 0x00 (0005ms, 0706ms total)
T207C 002:502 JLINK_ReadMem (0x0800A548, 0x003C Bytes, ...) -- CPU_ReadMem(64 bytes @ 0x0800A580) -- Updating C cache (64 bytes @ 0x0800A580) -- Read from C cache (60 bytes @ 0x0800A548) -- Data:  F8 F7 8C FE 60 89 06 44 24 68 00 2C F4 D1 4F F0 ...  returns 0x00 (0003ms, 0709ms total)
T207C 002:505 JLINK_ReadMem (0x0800A584, 0x003C Bytes, ...) -- Read from C cache (60 bytes @ 0x0800A584) -- Data:  80 46 0E 46 00 25 F9 F7 71 FE 07 46 34 46 07 E0 ...  returns 0x00 (0000ms, 0709ms total)
T207C 002:505 JLINK_ReadMem (0x0800A5C0, 0x003C Bytes, ...) -- CPU_ReadMem(64 bytes @ 0x0800A5C0) -- Updating C cache (64 bytes @ 0x0800A5C0) -- Read from C cache (60 bytes @ 0x0800A5C0) -- Data:  08 E0 28 78 07 02 6D 1C 28 78 07 43 6D 1C 3C 44 ...  returns 0x00 (0003ms, 0712ms total)
T207C 002:508 JLINK_ReadMem (0x0800A5FC, 0x003C Bytes, ...) -- CPU_ReadMem(64 bytes @ 0x0800A600) -- Updating C cache (64 bytes @ 0x0800A600) -- Read from C cache (60 bytes @ 0x0800A5FC) -- Data:  F0 81 00 00 FC F7 12 FA FE F7 FC FF FA F7 18 FF ...  returns 0x00 (0003ms, 0715ms total)
T4858 011:009 JLINK_SetBPEx(Addr = 0x0800A648, Type = 0xFFFFFFF2)  returns 0x00000003 (0005ms, 0720ms total)
T4858 011:014 JLINK_Go() -- CPU_WriteMem(4 bytes @ 0xE0002008) -- CPU_WriteMem(4 bytes @ 0xE000200C) (0009ms, 0729ms total)
T4858 011:123 JLINK_IsHalted()  returns FALSE (0001ms, 0730ms total)
T4858 011:224 JLINK_IsHalted()  returns TRUE (0012ms, 0741ms total)
T4858 011:236 JLINK_Halt()  returns 0x00 (0000ms, 0729ms total)
T4858 011:236 JLINK_IsHalted()  returns TRUE (0000ms, 0729ms total)
T4858 011:236 JLINK_IsHalted()  returns TRUE (0000ms, 0729ms total)
T4858 011:236 JLINK_IsHalted()  returns TRUE (0000ms, 0729ms total)
T4858 011:236 JLINK_ReadReg(R15)  returns 0x0800A648 (0000ms, 0729ms total)
T4858 011:236 JLINK_ReadReg(XPSR)  returns 0x61000000 (0000ms, 0729ms total)
T4858 011:236 JLINK_ClrBPEx(BPHandle = 0x00000003)  returns 0x00 (0000ms, 0729ms total)
T4858 011:236 JLINK_ReadMemU32(0xE000ED30, 0x0001 Items, ...) -- CPU_ReadMem(4 bytes @ 0xE000ED30) -- Data:  02 00 00 00  returns 0x01 (0002ms, 0731ms total)
T4858 011:238 JLINK_ReadMemU32(0xE0001028, 0x0001 Items, ...) -- CPU_ReadMem(4 bytes @ 0xE0001028) -- Data:  00 00 00 00  returns 0x01 (0002ms, 0733ms total)
T4858 011:240 JLINK_ReadMemU32(0xE0001038, 0x0001 Items, ...) -- CPU_ReadMem(4 bytes @ 0xE0001038) -- Data:  00 02 00 00  returns 0x01 (0002ms, 0735ms total)
T4858 011:242 JLINK_ReadMemU32(0xE0001048, 0x0001 Items, ...) -- CPU_ReadMem(4 bytes @ 0xE0001048) -- Data:  00 00 00 00  returns 0x01 (0002ms, 0737ms total)
T4858 011:244 JLINK_ReadMemU32(0xE0001058, 0x0001 Items, ...) -- CPU_ReadMem(4 bytes @ 0xE0001058) -- Data:  00 00 00 00  returns 0x01 (0002ms, 0739ms total)
T4858 011:247 JLINK_ReadReg(R0)  returns 0x00000010 (0000ms, 0739ms total)
T4858 011:247 JLINK_ReadReg(R1)  returns 0x00000000 (0000ms, 0739ms total)
T4858 011:247 JLINK_ReadReg(R2)  returns 0x76FF04A0 (0000ms, 0739ms total)
T4858 011:247 JLINK_ReadReg(R3)  returns 0x0000CE19 (0000ms, 0739ms total)
T4858 011:247 JLINK_ReadReg(R4)  returns 0x00000000 (0000ms, 0739ms total)
T4858 011:247 JLINK_ReadReg(R5)  returns 0x2000ED74 (0000ms, 0739ms total)
T4858 011:247 JLINK_ReadReg(R6)  returns 0x00000000 (0000ms, 0739ms total)
T4858 011:247 JLINK_ReadReg(R7)  returns 0x00000000 (0000ms, 0739ms total)
T4858 011:247 JLINK_ReadReg(R8)  returns 0x00000000 (0000ms, 0739ms total)
T4858 011:247 JLINK_ReadReg(R9)  returns 0x73435782 (0000ms, 0739ms total)
T4858 011:247 JLINK_ReadReg(R10)  returns 0x08010910 (0000ms, 0739ms total)
T4858 011:247 JLINK_ReadReg(R11)  returns 0x00000000 (0000ms, 0739ms total)
T4858 011:247 JLINK_ReadReg(R12)  returns 0x00000020 (0000ms, 0739ms total)
T4858 011:247 JLINK_ReadReg(R13)  returns 0x2000F3D8 (0000ms, 0739ms total)
T4858 011:247 JLINK_ReadReg(R14)  returns 0x0800DBD7 (0000ms, 0739ms total)
T4858 011:247 JLINK_ReadReg(R15)  returns 0x0800A648 (0000ms, 0739ms total)
T4858 011:247 JLINK_ReadReg(XPSR)  returns 0x61000000 (0000ms, 0739ms total)
T4858 011:247 JLINK_ReadReg(MSP)  returns 0x2000F3D8 (0000ms, 0739ms total)
T4858 011:247 JLINK_ReadReg(PSP)  returns 0x5F038578 (0000ms, 0739ms total)
T4858 011:247 JLINK_ReadReg(CFBP)  returns 0x00000000 (0000ms, 0739ms total)
T207C 011:247 JLINK_ReadMemU32(0xE0001004, 0x0001 Items, ...) -- CPU_ReadMem(4 bytes @ 0xE0001004) -- Data:  04 67 52 04  returns 0x01 (0002ms, 0741ms total)
T207C 011:250 JLINK_ReadMem (0x0800A644, 0x003C Bytes, ...) -- CPU_ReadMem(64 bytes @ 0x0800A640) -- Updating C cache (64 bytes @ 0x0800A640) -- Read from C cache (60 bytes @ 0x0800A644) -- Data:  03 F0 96 FA FB F7 6A FF FD F7 2B F9 1B E0 FD F7 ...  returns 0x00 (0003ms, 0744ms total)
T4858 014:229 JLINK_Step() -- Read from C cache (2 bytes @ 0x0800A648) -- Read from C cache (2 bytes @ 0x0800A64A) -- Simulated  returns 0x00 (0009ms, 0753ms total)
T4858 014:238 JLINK_ReadReg(R15)  returns 0x08006520 (0000ms, 0753ms total)
T4858 014:238 JLINK_ReadReg(XPSR)  returns 0x61000000 (0000ms, 0753ms total)
T4858 014:238 JLINK_ReadReg(R0)  returns 0x00000010 (0000ms, 0753ms total)
T4858 014:238 JLINK_ReadReg(R1)  returns 0x00000000 (0000ms, 0753ms total)
T4858 014:238 JLINK_ReadReg(R2)  returns 0x76FF04A0 (0000ms, 0753ms total)
T4858 014:238 JLINK_ReadReg(R3)  returns 0x0000CE19 (0000ms, 0753ms total)
T4858 014:238 JLINK_ReadReg(R4)  returns 0x00000000 (0000ms, 0753ms total)
T4858 014:238 JLINK_ReadReg(R5)  returns 0x2000ED74 (0000ms, 0753ms total)
T4858 014:238 JLINK_ReadReg(R6)  returns 0x00000000 (0000ms, 0753ms total)
T4858 014:238 JLINK_ReadReg(R7)  returns 0x00000000 (0000ms, 0753ms total)
T4858 014:238 JLINK_ReadReg(R8)  returns 0x00000000 (0000ms, 0753ms total)
T4858 014:238 JLINK_ReadReg(R9)  returns 0x73435782 (0000ms, 0753ms total)
T4858 014:238 JLINK_ReadReg(R10)  returns 0x08010910 (0000ms, 0753ms total)
T4858 014:238 JLINK_ReadReg(R11)  returns 0x00000000 (0000ms, 0753ms total)
T4858 014:238 JLINK_ReadReg(R12)  returns 0x00000020 (0000ms, 0753ms total)
T4858 014:238 JLINK_ReadReg(R13)  returns 0x2000F3D8 (0000ms, 0753ms total)
T4858 014:238 JLINK_ReadReg(R14)  returns 0x0800A64D (0000ms, 0753ms total)
T4858 014:238 JLINK_ReadReg(R15)  returns 0x08006520 (0000ms, 0753ms total)
T4858 014:238 JLINK_ReadReg(XPSR)  returns 0x61000000 (0000ms, 0753ms total)
T4858 014:238 JLINK_ReadReg(MSP)  returns 0x2000F3D8 (0000ms, 0753ms total)
T4858 014:238 JLINK_ReadReg(PSP)  returns 0x5F038578 (0000ms, 0753ms total)
T4858 014:238 JLINK_ReadReg(CFBP)  returns 0x00000000 (0000ms, 0753ms total)
T207C 014:238 JLINK_ReadMem (0x00000000, 0x0004 Bytes, ...)
                JLINK_ReadMemHW(0x00000000, 0x0004 Bytes, ...) -- CPU_ReadMem(4 bytes @ 0x00000000) -- Data:  B8 0B 00 20  returns 0x00 (0002ms, 0002ms total)
                JLINK_ReadMemHW(0x08000000, 0x0004 Bytes, ...) -- CPU_ReadMem(4 bytes @ 0x08000000) -- Data:  B8 0B 00 20  returns 0x00 (0002ms, 0004ms total)
                JLINK_WriteMemHW(0x00000000, 0x0004 Bytes, ...) -- Data:  09 00 01 00 -- CPU_WriteMem(4 bytes @ 0x00000000)  returns 0x04 (0002ms, 0006ms total)
                JLINK_ReadMemHW(0x00000000, 0x0004 Bytes, ...) -- CPU_ReadMem(4 bytes @ 0x00000000) -- Data:  B8 0B 00 20  returns 0x00 (0002ms, 0008ms total)
               -- MA0 is in flash -- Unmirror addr 0x00000000 -- CPU_ReadMem(64 bytes @ 0x08000000) -- Updating C cache (64 bytes @ 0x08000000) -- Read from C cache (4 bytes @ 0x08000000) -- Data:  B8 0B 00 20  returns 0x00 (0011ms, 0764ms total)
T207C 014:252 JLINK_ReadMemU32(0xE0001004, 0x0001 Items, ...) -- Data:  04 67 52 04  returns 0x01 (0000ms, 0764ms total)
T207C 014:253 JLINK_ReadMem (0x08006420, 0x003C Bytes, ...) -- CPU_ReadMem(128 bytes @ 0x08006400) -- Updating C cache (128 bytes @ 0x08006400) -- Read from C cache (60 bytes @ 0x08006420) -- Data:  5B FF 4C E0 3B 48 90 F8 37 00 04 28 47 D1 09 21 ...  returns 0x00 (0004ms, 0768ms total)
T207C 014:257 JLINK_ReadMem (0x0800645C, 0x003C Bytes, ...) -- CPU_ReadMem(64 bytes @ 0x08006480) -- Updating C cache (64 bytes @ 0x08006480) -- Read from C cache (60 bytes @ 0x0800645C) -- Data:  90 F8 3B 00 8D F8 01 00 2B 48 90 F8 3C 00 8D F8 ...  returns 0x00 (0003ms, 0771ms total)
T207C 014:260 JLINK_ReadMem (0x08006498, 0x003C Bytes, ...) -- CPU_ReadMem(64 bytes @ 0x080064C0) -- Updating C cache (64 bytes @ 0x080064C0) -- Read from C cache (60 bytes @ 0x08006498) -- Data:  1D 48 01 72 9D F8 01 10 41 72 9D F8 00 10 81 72 ...  returns 0x00 (0003ms, 0774ms total)
T207C 014:263 JLINK_ReadMem (0x080064D4, 0x003C Bytes, ...) -- CPU_ReadMem(64 bytes @ 0x08006500) -- Updating C cache (64 bytes @ 0x08006500) -- Read from C cache (60 bytes @ 0x080064D4) -- Data:  4C 1C E0 78 78 28 07 D1 0E 48 09 F0 D3 FE 20 79 ...  returns 0x00 (0003ms, 0777ms total)
T207C 014:266 JLINK_ReadMem (0x0800651E, 0x0002 Bytes, ...) -- Read from C cache (2 bytes @ 0x0800651E) -- Data:  00 20  returns 0x00 (0000ms, 0777ms total)
T207C 014:266 JLINK_ReadMem (0x08006520, 0x003C Bytes, ...) -- CPU_ReadMem(64 bytes @ 0x08006540) -- Updating C cache (64 bytes @ 0x08006540) -- Read from C cache (60 bytes @ 0x08006520) -- Data:  10 B5 00 24 1A E0 04 21 0F 48 FE F7 66 FC 4F F4 ...  returns 0x00 (0003ms, 0780ms total)
T207C 015:464 JLINK_ReadMem (0x20000014, 0x0004 Bytes, ...) -- CPU_ReadMem(64 bytes @ 0x20000000) -- Updating C cache (64 bytes @ 0x20000000) -- Read from C cache (4 bytes @ 0x20000014) -- Data:  00 00 00 00  returns 0x00 (0005ms, 0785ms total)
T4858 017:736 JLINK_SetBPEx(Addr = 0x0800A64C, Type = 0xFFFFFFF2)  returns 0x00000004 (0001ms, 0786ms total)
T4858 017:737 JLINK_SetBPEx(Addr = 0x0800A648, Type = 0xFFFFFFF2)  returns 0x00000005 (0000ms, 0786ms total)
T4858 017:737 JLINK_Go() -- Invalidate MA0 status -- CPU_WriteMem(4 bytes @ 0xE0002008) -- CPU_WriteMem(4 bytes @ 0xE000200C) (0011ms, 0797ms total)
T4858 017:848 JLINK_IsHalted()  returns TRUE (0012ms, 0809ms total)
T4858 017:860 JLINK_Halt()  returns 0x00 (0000ms, 0797ms total)
T4858 017:860 JLINK_IsHalted()  returns TRUE (0000ms, 0797ms total)
T4858 017:860 JLINK_IsHalted()  returns TRUE (0000ms, 0797ms total)
T4858 017:860 JLINK_IsHalted()  returns TRUE (0000ms, 0797ms total)
T4858 017:860 JLINK_ReadReg(R15)  returns 0x0800A64C (0000ms, 0797ms total)
T4858 017:860 JLINK_ReadReg(XPSR)  returns 0x61000000 (0000ms, 0797ms total)
T4858 017:860 JLINK_ClrBPEx(BPHandle = 0x00000004)  returns 0x00 (0000ms, 0797ms total)
T4858 017:860 JLINK_ClrBPEx(BPHandle = 0x00000005)  returns 0x00 (0000ms, 0797ms total)
T4858 017:860 JLINK_ReadMemU32(0xE000ED30, 0x0001 Items, ...) -- CPU_ReadMem(4 bytes @ 0xE000ED30) -- Data:  02 00 00 00  returns 0x01 (0002ms, 0799ms total)
T4858 017:862 JLINK_ReadMemU32(0xE0001028, 0x0001 Items, ...) -- CPU_ReadMem(4 bytes @ 0xE0001028) -- Data:  00 00 00 00  returns 0x01 (0002ms, 0801ms total)
T4858 017:864 JLINK_ReadMemU32(0xE0001038, 0x0001 Items, ...) -- CPU_ReadMem(4 bytes @ 0xE0001038) -- Data:  00 02 00 00  returns 0x01 (0002ms, 0803ms total)
T4858 017:866 JLINK_ReadMemU32(0xE0001048, 0x0001 Items, ...) -- CPU_ReadMem(4 bytes @ 0xE0001048) -- Data:  00 00 00 00  returns 0x01 (0002ms, 0805ms total)
T4858 017:868 JLINK_ReadMemU32(0xE0001058, 0x0001 Items, ...) -- CPU_ReadMem(4 bytes @ 0xE0001058) -- Data:  00 00 00 00  returns 0x01 (0003ms, 0808ms total)
T4858 017:871 JLINK_ReadReg(R0)  returns 0x00000000 (0000ms, 0808ms total)
T4858 017:871 JLINK_ReadReg(R1)  returns 0x00000000 (0000ms, 0808ms total)
T4858 017:871 JLINK_ReadReg(R2)  returns 0x76FF04A0 (0000ms, 0808ms total)
T4858 017:871 JLINK_ReadReg(R3)  returns 0x0000CE19 (0000ms, 0808ms total)
T4858 017:871 JLINK_ReadReg(R4)  returns 0x00000000 (0000ms, 0808ms total)
T4858 017:871 JLINK_ReadReg(R5)  returns 0x2000ED74 (0000ms, 0808ms total)
T4858 017:871 JLINK_ReadReg(R6)  returns 0x00000000 (0000ms, 0808ms total)
T4858 017:871 JLINK_ReadReg(R7)  returns 0x00000000 (0000ms, 0808ms total)
T4858 017:871 JLINK_ReadReg(R8)  returns 0x00000000 (0000ms, 0808ms total)
T4858 017:871 JLINK_ReadReg(R9)  returns 0x73435782 (0000ms, 0808ms total)
T4858 017:871 JLINK_ReadReg(R10)  returns 0x08010910 (0000ms, 0808ms total)
T4858 017:871 JLINK_ReadReg(R11)  returns 0x00000000 (0000ms, 0808ms total)
T4858 017:871 JLINK_ReadReg(R12)  returns 0x00000020 (0000ms, 0808ms total)
T4858 017:871 JLINK_ReadReg(R13)  returns 0x2000F3D8 (0000ms, 0808ms total)
T4858 017:871 JLINK_ReadReg(R14)  returns 0x0800A64D (0000ms, 0808ms total)
T4858 017:871 JLINK_ReadReg(R15)  returns 0x0800A64C (0000ms, 0808ms total)
T4858 017:871 JLINK_ReadReg(XPSR)  returns 0x61000000 (0000ms, 0808ms total)
T4858 017:871 JLINK_ReadReg(MSP)  returns 0x2000F3D8 (0000ms, 0808ms total)
T4858 017:871 JLINK_ReadReg(PSP)  returns 0x5F038578 (0000ms, 0808ms total)
T4858 017:871 JLINK_ReadReg(CFBP)  returns 0x00000000 (0000ms, 0808ms total)
T207C 017:879 JLINK_ReadMemU32(0xE0001004, 0x0001 Items, ...) -- CPU_ReadMem(4 bytes @ 0xE0001004) -- Data:  22 36 53 04  returns 0x01 (0002ms, 0810ms total)
T207C 017:882 JLINK_ReadMem (0x0800A648, 0x003C Bytes, ...) -- CPU_ReadMem(128 bytes @ 0x0800A640) -- Updating C cache (128 bytes @ 0x0800A640) -- Read from C cache (60 bytes @ 0x0800A648) -- Data:  FB F7 6A FF FD F7 2B F9 1B E0 FD F7 DF F8 0F 48 ...  returns 0x00 (0005ms, 0815ms total)
T4858 020:635 JLINK_Step() -- Read from C cache (2 bytes @ 0x0800A64C) -- Read from C cache (2 bytes @ 0x0800A64E) -- Simulated  returns 0x00 (0008ms, 0823ms total)
T4858 020:643 JLINK_ReadReg(R15)  returns 0x080078A6 (0000ms, 0823ms total)
T4858 020:643 JLINK_ReadReg(XPSR)  returns 0x61000000 (0000ms, 0823ms total)
T4858 020:643 JLINK_ReadReg(R0)  returns 0x00000000 (0000ms, 0823ms total)
T4858 020:643 JLINK_ReadReg(R1)  returns 0x00000000 (0000ms, 0823ms total)
T4858 020:643 JLINK_ReadReg(R2)  returns 0x76FF04A0 (0000ms, 0823ms total)
T4858 020:643 JLINK_ReadReg(R3)  returns 0x0000CE19 (0000ms, 0823ms total)
T4858 020:643 JLINK_ReadReg(R4)  returns 0x00000000 (0000ms, 0823ms total)
T4858 020:643 JLINK_ReadReg(R5)  returns 0x2000ED74 (0000ms, 0823ms total)
T4858 020:643 JLINK_ReadReg(R6)  returns 0x00000000 (0000ms, 0823ms total)
T4858 020:643 JLINK_ReadReg(R7)  returns 0x00000000 (0000ms, 0823ms total)
T4858 020:643 JLINK_ReadReg(R8)  returns 0x00000000 (0000ms, 0823ms total)
T4858 020:643 JLINK_ReadReg(R9)  returns 0x73435782 (0000ms, 0823ms total)
T4858 020:643 JLINK_ReadReg(R10)  returns 0x08010910 (0000ms, 0823ms total)
T4858 020:643 JLINK_ReadReg(R11)  returns 0x00000000 (0000ms, 0823ms total)
T4858 020:643 JLINK_ReadReg(R12)  returns 0x00000020 (0000ms, 0823ms total)
T4858 020:643 JLINK_ReadReg(R13)  returns 0x2000F3D8 (0000ms, 0823ms total)
T4858 020:643 JLINK_ReadReg(R14)  returns 0x0800A651 (0000ms, 0823ms total)
T4858 020:643 JLINK_ReadReg(R15)  returns 0x080078A6 (0000ms, 0823ms total)
T4858 020:643 JLINK_ReadReg(XPSR)  returns 0x61000000 (0000ms, 0823ms total)
T4858 020:643 JLINK_ReadReg(MSP)  returns 0x2000F3D8 (0000ms, 0823ms total)
T4858 020:643 JLINK_ReadReg(PSP)  returns 0x5F038578 (0000ms, 0823ms total)
T4858 020:643 JLINK_ReadReg(CFBP)  returns 0x00000000 (0000ms, 0823ms total)
T207C 020:645 JLINK_ReadMemU32(0xE0001004, 0x0001 Items, ...) -- Data:  22 36 53 04  returns 0x01 (0000ms, 0823ms total)
T207C 020:646 JLINK_ReadMem (0x080078A2, 0x0002 Bytes, ...) -- CPU_ReadMem(64 bytes @ 0x08007880) -- Updating C cache (64 bytes @ 0x08007880) -- Read from C cache (2 bytes @ 0x080078A2) -- Data:  00 BF  returns 0x00 (0003ms, 0826ms total)
T207C 020:649 JLINK_ReadMem (0x080078A4, 0x003C Bytes, ...) -- CPU_ReadMem(64 bytes @ 0x080078C0) -- Updating C cache (64 bytes @ 0x080078C0) -- Read from C cache (60 bytes @ 0x080078A4) -- Data:  FE E7 10 B5 45 F2 55 50 FD F7 72 FC 03 20 FD F7 ...  returns 0x00 (0003ms, 0829ms total)
T4858 022:412 JLINK_SetBPEx(Addr = 0x0800A650, Type = 0xFFFFFFF2)  returns 0x00000006 (0001ms, 0830ms total)
T4858 022:413 JLINK_SetBPEx(Addr = 0x0800A648, Type = 0xFFFFFFF2)  returns 0x00000007 (0000ms, 0830ms total)
T4858 022:413 JLINK_Go() -- CPU_WriteMem(4 bytes @ 0xE0002008) (0009ms, 0839ms total)
T4858 022:522 JLINK_IsHalted()  returns TRUE (0012ms, 0851ms total)
T4858 022:534 JLINK_Halt()  returns 0x00 (0000ms, 0839ms total)
T4858 022:534 JLINK_IsHalted()  returns TRUE (0000ms, 0839ms total)
T4858 022:534 JLINK_IsHalted()  returns TRUE (0000ms, 0839ms total)
T4858 022:534 JLINK_IsHalted()  returns TRUE (0000ms, 0839ms total)
T4858 022:534 JLINK_ReadReg(R15)  returns 0x0800A650 (0000ms, 0839ms total)
T4858 022:534 JLINK_ReadReg(XPSR)  returns 0x21000000 (0000ms, 0839ms total)
T4858 022:534 JLINK_ClrBPEx(BPHandle = 0x00000006)  returns 0x00 (0000ms, 0839ms total)
T4858 022:534 JLINK_ClrBPEx(BPHandle = 0x00000007)  returns 0x00 (0000ms, 0839ms total)
T4858 022:534 JLINK_ReadMemU32(0xE000ED30, 0x0001 Items, ...) -- CPU_ReadMem(4 bytes @ 0xE000ED30) -- Data:  02 00 00 00  returns 0x01 (0002ms, 0841ms total)
T4858 022:536 JLINK_ReadMemU32(0xE0001028, 0x0001 Items, ...) -- CPU_ReadMem(4 bytes @ 0xE0001028) -- Data:  00 00 00 00  returns 0x01 (0002ms, 0843ms total)
T4858 022:538 JLINK_ReadMemU32(0xE0001038, 0x0001 Items, ...) -- CPU_ReadMem(4 bytes @ 0xE0001038) -- Data:  00 02 00 00  returns 0x01 (0002ms, 0845ms total)
T4858 022:540 JLINK_ReadMemU32(0xE0001048, 0x0001 Items, ...) -- CPU_ReadMem(4 bytes @ 0xE0001048) -- Data:  00 00 00 00  returns 0x01 (0002ms, 0847ms total)
T4858 022:542 JLINK_ReadMemU32(0xE0001058, 0x0001 Items, ...) -- CPU_ReadMem(4 bytes @ 0xE0001058) -- Data:  00 00 00 00  returns 0x01 (0002ms, 0849ms total)
T4858 022:544 JLINK_ReadReg(R0)  returns 0x0000CCCC (0000ms, 0849ms total)
T4858 022:544 JLINK_ReadReg(R1)  returns 0x40003000 (0000ms, 0849ms total)
T4858 022:544 JLINK_ReadReg(R2)  returns 0x76FF04A0 (0000ms, 0849ms total)
T4858 022:544 JLINK_ReadReg(R3)  returns 0x0000CE19 (0000ms, 0849ms total)
T4858 022:544 JLINK_ReadReg(R4)  returns 0x00000000 (0000ms, 0849ms total)
T4858 022:544 JLINK_ReadReg(R5)  returns 0x2000ED74 (0000ms, 0849ms total)
T4858 022:544 JLINK_ReadReg(R6)  returns 0x00000000 (0000ms, 0849ms total)
T4858 022:544 JLINK_ReadReg(R7)  returns 0x00000000 (0000ms, 0849ms total)
T4858 022:544 JLINK_ReadReg(R8)  returns 0x00000000 (0000ms, 0849ms total)
T4858 022:544 JLINK_ReadReg(R9)  returns 0x73435782 (0000ms, 0849ms total)
T4858 022:544 JLINK_ReadReg(R10)  returns 0x08010910 (0000ms, 0849ms total)
T4858 022:544 JLINK_ReadReg(R11)  returns 0x00000000 (0000ms, 0849ms total)
T4858 022:544 JLINK_ReadReg(R12)  returns 0x00000020 (0000ms, 0849ms total)
T4858 022:544 JLINK_ReadReg(R13)  returns 0x2000F3D8 (0000ms, 0849ms total)
T4858 022:544 JLINK_ReadReg(R14)  returns 0x080078C7 (0000ms, 0849ms total)
T4858 022:544 JLINK_ReadReg(R15)  returns 0x0800A650 (0000ms, 0849ms total)
T4858 022:544 JLINK_ReadReg(XPSR)  returns 0x21000000 (0000ms, 0849ms total)
T4858 022:544 JLINK_ReadReg(MSP)  returns 0x2000F3D8 (0000ms, 0849ms total)
T4858 022:544 JLINK_ReadReg(PSP)  returns 0x5F038578 (0000ms, 0849ms total)
T4858 022:544 JLINK_ReadReg(CFBP)  returns 0x00000000 (0000ms, 0849ms total)
T207C 022:550 JLINK_ReadMemU32(0xE0001004, 0x0001 Items, ...) -- CPU_ReadMem(4 bytes @ 0xE0001004) -- Data:  A1 E7 53 04  returns 0x01 (0002ms, 0851ms total)
T207C 022:553 JLINK_ReadMem (0x0800A64C, 0x003C Bytes, ...) -- CPU_ReadMem(128 bytes @ 0x0800A640) -- Updating C cache (128 bytes @ 0x0800A640) -- Read from C cache (60 bytes @ 0x0800A64C) -- Data:  FD F7 2B F9 1B E0 FD F7 DF F8 0F 48 D0 F8 48 03 ...  returns 0x00 (0005ms, 0856ms total)
T4858 025:885 JLINK_Step() -- Read from C cache (2 bytes @ 0x0800A650) -- Simulated  returns 0x00 (0004ms, 0860ms total)
T4858 025:889 JLINK_ReadReg(R15)  returns 0x0800A68A (0000ms, 0860ms total)
T4858 025:889 JLINK_ReadReg(XPSR)  returns 0x21000000 (0000ms, 0860ms total)
T4858 025:889 JLINK_ReadReg(R0)  returns 0x0000CCCC (0000ms, 0860ms total)
T4858 025:889 JLINK_ReadReg(R1)  returns 0x40003000 (0000ms, 0860ms total)
T4858 025:889 JLINK_ReadReg(R2)  returns 0x76FF04A0 (0000ms, 0860ms total)
T4858 025:889 JLINK_ReadReg(R3)  returns 0x0000CE19 (0000ms, 0860ms total)
T4858 025:889 JLINK_ReadReg(R4)  returns 0x00000000 (0000ms, 0860ms total)
T4858 025:889 JLINK_ReadReg(R5)  returns 0x2000ED74 (0000ms, 0860ms total)
T4858 025:889 JLINK_ReadReg(R6)  returns 0x00000000 (0000ms, 0860ms total)
T4858 025:889 JLINK_ReadReg(R7)  returns 0x00000000 (0000ms, 0860ms total)
T4858 025:889 JLINK_ReadReg(R8)  returns 0x00000000 (0000ms, 0860ms total)
T4858 025:889 JLINK_ReadReg(R9)  returns 0x73435782 (0000ms, 0860ms total)
T4858 025:889 JLINK_ReadReg(R10)  returns 0x08010910 (0000ms, 0860ms total)
T4858 025:889 JLINK_ReadReg(R11)  returns 0x00000000 (0000ms, 0860ms total)
T4858 025:889 JLINK_ReadReg(R12)  returns 0x00000020 (0000ms, 0860ms total)
T4858 025:889 JLINK_ReadReg(R13)  returns 0x2000F3D8 (0000ms, 0860ms total)
T4858 025:889 JLINK_ReadReg(R14)  returns 0x080078C7 (0000ms, 0860ms total)
T4858 025:889 JLINK_ReadReg(R15)  returns 0x0800A68A (0000ms, 0860ms total)
T4858 025:889 JLINK_ReadReg(XPSR)  returns 0x21000000 (0000ms, 0860ms total)
T4858 025:889 JLINK_ReadReg(MSP)  returns 0x2000F3D8 (0000ms, 0860ms total)
T4858 025:889 JLINK_ReadReg(PSP)  returns 0x5F038578 (0000ms, 0860ms total)
T4858 025:889 JLINK_ReadReg(CFBP)  returns 0x00000000 (0000ms, 0860ms total)
T207C 025:889 JLINK_ReadMemU32(0xE0001004, 0x0001 Items, ...) -- Data:  A1 E7 53 04  returns 0x01 (0000ms, 0860ms total)
T207C 025:890 JLINK_ReadMem (0x0800A68A, 0x0002 Bytes, ...) -- Read from C cache (2 bytes @ 0x0800A68A) -- Data:  E2 E7  returns 0x00 (0000ms, 0860ms total)
T207C 025:890 JLINK_ReadMem (0x0800A68C, 0x003C Bytes, ...) -- CPU_ReadMem(64 bytes @ 0x0800A6C0) -- Updating C cache (64 bytes @ 0x0800A6C0) -- Read from C cache (60 bytes @ 0x0800A68C) -- Data:  59 9E 00 20 00 18 01 40 7E 9E 00 20 42 9A 00 20 ...  returns 0x00 (0004ms, 0864ms total)
T207C 028:820 JLINK_ReadMem (0x0800A686, 0x0002 Bytes, ...) -- Read from C cache (2 bytes @ 0x0800A686) -- Data:  F8 F7  returns 0x00 (0002ms, 0866ms total)
T207C 028:822 JLINK_ReadMem (0x0800A688, 0x003C Bytes, ...) -- Read from C cache (60 bytes @ 0x0800A688) -- Data:  6D FF E2 E7 59 9E 00 20 00 18 01 40 7E 9E 00 20 ...  returns 0x00 (0000ms, 0866ms total)
T207C 028:824 JLINK_ReadMem (0x0800A682, 0x0002 Bytes, ...) -- Read from C cache (2 bytes @ 0x0800A682) -- Data:  00 BF  returns 0x00 (0000ms, 0866ms total)
T207C 028:824 JLINK_ReadMem (0x0800A684, 0x003C Bytes, ...) -- Read from C cache (60 bytes @ 0x0800A684) -- Data:  00 BF F8 F7 6D FF E2 E7 59 9E 00 20 00 18 01 40 ...  returns 0x00 (0000ms, 0866ms total)
T207C 030:703 JLINK_ReadMem (0x0800A67E, 0x0002 Bytes, ...) -- Read from C cache (2 bytes @ 0x0800A67E) -- Data:  02 F0  returns 0x00 (0001ms, 0867ms total)
T207C 030:704 JLINK_ReadMem (0x0800A680, 0x003C Bytes, ...) -- Read from C cache (60 bytes @ 0x0800A680) -- Data:  E3 FB 00 BF 00 BF F8 F7 6D FF E2 E7 59 9E 00 20 ...  returns 0x00 (0000ms, 0867ms total)
T207C 030:752 JLINK_ReadMem (0x0800A67A, 0x0002 Bytes, ...) -- Read from C cache (2 bytes @ 0x0800A67A) -- Data:  06 F0  returns 0x00 (0000ms, 0867ms total)
T207C 030:752 JLINK_ReadMem (0x0800A67C, 0x003C Bytes, ...) -- Read from C cache (60 bytes @ 0x0800A67C) -- Data:  1F F8 02 F0 E3 FB 00 BF 00 BF F8 F7 6D FF E2 E7 ...  returns 0x00 (0000ms, 0867ms total)
T207C 030:756 JLINK_ReadMem (0x0800A678, 0x003C Bytes, ...) -- Read from C cache (60 bytes @ 0x0800A678) -- Data:  20 B9 06 F0 1F F8 02 F0 E3 FB 00 BF 00 BF F8 F7 ...  returns 0x00 (0000ms, 0867ms total)
T207C 030:920 JLINK_ReadMem (0x0800A674, 0x003C Bytes, ...) -- Read from C cache (60 bytes @ 0x0800A674) -- Data:  90 F8 4C 00 20 B9 06 F0 1F F8 02 F0 E3 FB 00 BF ...  returns 0x00 (0001ms, 0868ms total)
T207C 030:923 JLINK_ReadMem (0x0800A672, 0x0002 Bytes, ...) -- Read from C cache (2 bytes @ 0x0800A672) -- Data:  09 48  returns 0x00 (0000ms, 0868ms total)
T207C 031:062 JLINK_ReadMem (0x0800A66E, 0x0002 Bytes, ...) -- Read from C cache (2 bytes @ 0x0800A66E) -- Data:  FA F7  returns 0x00 (0000ms, 0868ms total)
T207C 031:062 JLINK_ReadMem (0x0800A670, 0x003C Bytes, ...) -- Read from C cache (60 bytes @ 0x0800A670) -- Data:  A9 FE 09 48 90 F8 4C 00 20 B9 06 F0 1F F8 02 F0 ...  returns 0x00 (0000ms, 0868ms total)
T207C 031:188 JLINK_ReadMem (0x20009A8E, 0x0001 Bytes, ...) -- CPU_ReadMem(64 bytes @ 0x20009A80) -- Updating C cache (64 bytes @ 0x20009A80) -- Read from C cache (1 bytes @ 0x20009A8E) -- Data:  00  returns 0x00 (0003ms, 0871ms total)
T4858 043:866 JLINK_Step() -- Read from C cache (2 bytes @ 0x0800A68A) -- Simulated  returns 0x00 (0004ms, 0875ms total)
T4858 043:870 JLINK_ReadReg(R15)  returns 0x0800A652 (0000ms, 0875ms total)
T4858 043:870 JLINK_ReadReg(XPSR)  returns 0x21000000 (0000ms, 0875ms total)
T4858 043:870 JLINK_ReadReg(R0)  returns 0x0000CCCC (0000ms, 0875ms total)
T4858 043:870 JLINK_ReadReg(R1)  returns 0x40003000 (0000ms, 0875ms total)
T4858 043:870 JLINK_ReadReg(R2)  returns 0x76FF04A0 (0000ms, 0875ms total)
T4858 043:870 JLINK_ReadReg(R3)  returns 0x0000CE19 (0000ms, 0875ms total)
T4858 043:870 JLINK_ReadReg(R4)  returns 0x00000000 (0000ms, 0875ms total)
T4858 043:870 JLINK_ReadReg(R5)  returns 0x2000ED74 (0000ms, 0875ms total)
T4858 043:870 JLINK_ReadReg(R6)  returns 0x00000000 (0000ms, 0875ms total)
T4858 043:870 JLINK_ReadReg(R7)  returns 0x00000000 (0000ms, 0875ms total)
T4858 043:870 JLINK_ReadReg(R8)  returns 0x00000000 (0000ms, 0875ms total)
T4858 043:870 JLINK_ReadReg(R9)  returns 0x73435782 (0000ms, 0875ms total)
T4858 043:870 JLINK_ReadReg(R10)  returns 0x08010910 (0000ms, 0875ms total)
T4858 043:870 JLINK_ReadReg(R11)  returns 0x00000000 (0000ms, 0875ms total)
T4858 043:870 JLINK_ReadReg(R12)  returns 0x00000020 (0000ms, 0875ms total)
T4858 043:870 JLINK_ReadReg(R13)  returns 0x2000F3D8 (0000ms, 0875ms total)
T4858 043:870 JLINK_ReadReg(R14)  returns 0x080078C7 (0000ms, 0875ms total)
T4858 043:870 JLINK_ReadReg(R15)  returns 0x0800A652 (0000ms, 0875ms total)
T4858 043:870 JLINK_ReadReg(XPSR)  returns 0x21000000 (0000ms, 0875ms total)
T4858 043:870 JLINK_ReadReg(MSP)  returns 0x2000F3D8 (0000ms, 0875ms total)
T4858 043:870 JLINK_ReadReg(PSP)  returns 0x5F038578 (0000ms, 0875ms total)
T4858 043:870 JLINK_ReadReg(CFBP)  returns 0x00000000 (0000ms, 0875ms total)
T207C 043:870 JLINK_ReadMemU32(0xE0001004, 0x0001 Items, ...) -- Data:  A1 E7 53 04  returns 0x01 (0000ms, 0875ms total)
T207C 043:871 JLINK_ReadMem (0x0800A650, 0x003C Bytes, ...) -- Read from C cache (60 bytes @ 0x0800A650) -- Data:  1B E0 FD F7 DF F8 0F 48 D0 F8 48 03 28 B1 FB F7 ...  returns 0x00 (0000ms, 0875ms total)
T207C 045:493 JLINK_ReadMem (0x2000A1C6, 0x0004 Bytes, ...) -- CPU_ReadMem(64 bytes @ 0x2000A1C0) -- Updating C cache (64 bytes @ 0x2000A1C0) -- Read from C cache (4 bytes @ 0x2000A1C6) -- Data:  00 00 00 00  returns 0x00 (0005ms, 0880ms total)
T4858 048:379 JLINK_Step() -- Read from C cache (2 bytes @ 0x0800A652) -- Read from C cache (2 bytes @ 0x0800A654) -- Simulated  returns 0x00 (0004ms, 0884ms total)
T4858 048:383 JLINK_ReadReg(R15)  returns 0x08007814 (0000ms, 0884ms total)
T4858 048:383 JLINK_ReadReg(XPSR)  returns 0x21000000 (0000ms, 0884ms total)
T4858 048:383 JLINK_ReadReg(R0)  returns 0x0000CCCC (0000ms, 0884ms total)
T4858 048:383 JLINK_ReadReg(R1)  returns 0x40003000 (0000ms, 0884ms total)
T4858 048:383 JLINK_ReadReg(R2)  returns 0x76FF04A0 (0000ms, 0884ms total)
T4858 048:383 JLINK_ReadReg(R3)  returns 0x0000CE19 (0000ms, 0884ms total)
T4858 048:383 JLINK_ReadReg(R4)  returns 0x00000000 (0000ms, 0884ms total)
T4858 048:383 JLINK_ReadReg(R5)  returns 0x2000ED74 (0000ms, 0884ms total)
T4858 048:383 JLINK_ReadReg(R6)  returns 0x00000000 (0000ms, 0884ms total)
T4858 048:383 JLINK_ReadReg(R7)  returns 0x00000000 (0000ms, 0884ms total)
T4858 048:383 JLINK_ReadReg(R8)  returns 0x00000000 (0000ms, 0884ms total)
T4858 048:383 JLINK_ReadReg(R9)  returns 0x73435782 (0001ms, 0885ms total)
T4858 048:384 JLINK_ReadReg(R10)  returns 0x08010910 (0000ms, 0885ms total)
T4858 048:384 JLINK_ReadReg(R11)  returns 0x00000000 (0000ms, 0885ms total)
T4858 048:384 JLINK_ReadReg(R12)  returns 0x00000020 (0000ms, 0885ms total)
T4858 048:384 JLINK_ReadReg(R13)  returns 0x2000F3D8 (0000ms, 0885ms total)
T4858 048:384 JLINK_ReadReg(R14)  returns 0x0800A657 (0000ms, 0885ms total)
T4858 048:384 JLINK_ReadReg(R15)  returns 0x08007814 (0000ms, 0885ms total)
T4858 048:384 JLINK_ReadReg(XPSR)  returns 0x21000000 (0000ms, 0885ms total)
T4858 048:384 JLINK_ReadReg(MSP)  returns 0x2000F3D8 (0000ms, 0885ms total)
T4858 048:384 JLINK_ReadReg(PSP)  returns 0x5F038578 (0000ms, 0885ms total)
T4858 048:384 JLINK_ReadReg(CFBP)  returns 0x00000000 (0000ms, 0885ms total)
T207C 048:387 JLINK_ReadMemU32(0xE0001004, 0x0001 Items, ...) -- Data:  A1 E7 53 04  returns 0x01 (0000ms, 0885ms total)
T207C 048:388 JLINK_ReadMem (0x08007714, 0x003C Bytes, ...) -- CPU_ReadMem(128 bytes @ 0x08007700) -- Updating C cache (128 bytes @ 0x08007700) -- Read from C cache (60 bytes @ 0x08007714) -- Data:  01 20 00 E0 00 20 70 BD F0 B5 03 46 00 24 00 26 ...  returns 0x00 (0004ms, 0889ms total)
T207C 048:392 JLINK_ReadMem (0x08007750, 0x003C Bytes, ...) -- CPU_ReadMem(64 bytes @ 0x08007780) -- Updating C cache (64 bytes @ 0x08007780) -- Read from C cache (60 bytes @ 0x08007750) -- Data:  00 E0 14 30 1A B1 07 68 2F 43 07 60 02 E0 07 68 ...  returns 0x00 (0003ms, 0892ms total)
T207C 048:395 JLINK_ReadMem (0x0800778C, 0x003C Bytes, ...) -- CPU_ReadMem(64 bytes @ 0x080077C0) -- Updating C cache (64 bytes @ 0x080077C0) -- Read from C cache (60 bytes @ 0x0800778C) -- Data:  F0 88 04 43 2C 82 AC 89 4E F6 F3 10 04 40 B0 88 ...  returns 0x00 (0003ms, 0895ms total)
T207C 048:398 JLINK_ReadMem (0x080077C8, 0x003C Bytes, ...) -- CPU_ReadMem(64 bytes @ 0x08007800) -- Updating C cache (64 bytes @ 0x08007800) -- Read from C cache (60 bytes @ 0x080077C8) -- Data:  DD F8 0C A0 0A EB CA 00 00 EB 0A 10 31 68 89 00 ...  returns 0x00 (0003ms, 0898ms total)
T207C 048:401 JLINK_ReadMem (0x08007808, 0x003C Bytes, ...) -- CPU_ReadMem(64 bytes @ 0x08007840) -- Updating C cache (64 bytes @ 0x08007840) -- Read from C cache (60 bytes @ 0x08007808) -- Data:  01 46 88 88 C0 F3 08 00 70 47 00 00 1C B5 1E 48 ...  returns 0x00 (0003ms, 0901ms total)
T207C 048:465 JLINK_ReadMem (0x0800A652, 0x0002 Bytes, ...) -- Read from C cache (2 bytes @ 0x0800A652) -- Data:  FD F7  returns 0x00 (0000ms, 0901ms total)
T207C 048:465 JLINK_ReadMem (0x0800A654, 0x003C Bytes, ...) -- Read from C cache (60 bytes @ 0x0800A654) -- Data:  DF F8 0F 48 D0 F8 48 03 28 B1 FB F7 A1 FE 00 20 ...  returns 0x00 (0000ms, 0901ms total)
T4858 054:918 JLINK_Step() -- Read from C cache (2 bytes @ 0x08007814) -- CPU_WriteMem(16 bytes @ 0x2000F3C8) -- Simulated  returns 0x00 (0006ms, 0907ms total)
T4858 054:924 JLINK_ReadReg(R15)  returns 0x08007816 (0000ms, 0907ms total)
T4858 054:924 JLINK_ReadReg(XPSR)  returns 0x21000000 (0000ms, 0907ms total)
T4858 054:924 JLINK_ReadReg(R0)  returns 0x0000CCCC (0000ms, 0907ms total)
T4858 054:924 JLINK_ReadReg(R1)  returns 0x40003000 (0000ms, 0907ms total)
T4858 054:924 JLINK_ReadReg(R2)  returns 0x76FF04A0 (0000ms, 0907ms total)
T4858 054:924 JLINK_ReadReg(R3)  returns 0x0000CE19 (0000ms, 0907ms total)
T4858 054:924 JLINK_ReadReg(R4)  returns 0x00000000 (0000ms, 0907ms total)
T4858 054:924 JLINK_ReadReg(R5)  returns 0x2000ED74 (0000ms, 0907ms total)
T4858 054:924 JLINK_ReadReg(R6)  returns 0x00000000 (0000ms, 0907ms total)
T4858 054:924 JLINK_ReadReg(R7)  returns 0x00000000 (0000ms, 0907ms total)
T4858 054:924 JLINK_ReadReg(R8)  returns 0x00000000 (0000ms, 0907ms total)
T4858 054:924 JLINK_ReadReg(R9)  returns 0x73435782 (0000ms, 0907ms total)
T4858 054:924 JLINK_ReadReg(R10)  returns 0x08010910 (0000ms, 0907ms total)
T4858 054:924 JLINK_ReadReg(R11)  returns 0x00000000 (0000ms, 0907ms total)
T4858 054:924 JLINK_ReadReg(R12)  returns 0x00000020 (0000ms, 0907ms total)
T4858 054:924 JLINK_ReadReg(R13)  returns 0x2000F3C8 (0000ms, 0907ms total)
T4858 054:924 JLINK_ReadReg(R14)  returns 0x0800A657 (0000ms, 0907ms total)
T4858 054:924 JLINK_ReadReg(R15)  returns 0x08007816 (0000ms, 0907ms total)
T4858 054:924 JLINK_ReadReg(XPSR)  returns 0x21000000 (0000ms, 0907ms total)
T4858 054:924 JLINK_ReadReg(MSP)  returns 0x2000F3C8 (0000ms, 0907ms total)
T4858 054:924 JLINK_ReadReg(PSP)  returns 0x5F038578 (0000ms, 0907ms total)
T4858 054:924 JLINK_ReadReg(CFBP)  returns 0x00000000 (0000ms, 0907ms total)
T207C 054:924 JLINK_ReadMem (0x2000F3D4, 0x0004 Bytes, ...) -- CPU_ReadMem(64 bytes @ 0x2000F3C0) -- Updating C cache (64 bytes @ 0x2000F3C0) -- Read from C cache (4 bytes @ 0x2000F3D4) -- Data:  57 A6 00 08  returns 0x00 (0003ms, 0910ms total)
T207C 054:927 JLINK_ReadMem (0x2000F3D0, 0x0004 Bytes, ...) -- Read from C cache (4 bytes @ 0x2000F3D0) -- Data:  00 00 00 00  returns 0x00 (0000ms, 0910ms total)
T207C 054:927 JLINK_ReadMemU32(0xE0001004, 0x0001 Items, ...) -- Data:  A1 E7 53 04  returns 0x01 (0000ms, 0910ms total)
T4858 056:064 JLINK_SetBPEx(Addr = 0x0800A656, Type = 0xFFFFFFF2)  returns 0x00000008 (0002ms, 0912ms total)
T4858 056:066 JLINK_SetBPEx(Addr = 0x0800A648, Type = 0xFFFFFFF2)  returns 0x00000009 (0000ms, 0912ms total)
T4858 056:066 JLINK_Go() -- CPU_WriteMem(4 bytes @ 0xE0002008) (0009ms, 0921ms total)
T4858 056:175 JLINK_IsHalted()  returns TRUE (0012ms, 0933ms total)
T4858 056:187 JLINK_Halt()  returns 0x00 (0000ms, 0921ms total)
T4858 056:187 JLINK_IsHalted()  returns TRUE (0000ms, 0921ms total)
T4858 056:187 JLINK_IsHalted()  returns TRUE (0000ms, 0921ms total)
T4858 056:187 JLINK_IsHalted()  returns TRUE (0000ms, 0921ms total)
T4858 056:187 JLINK_ReadReg(R15)  returns 0x0800A656 (0000ms, 0921ms total)
T4858 056:187 JLINK_ReadReg(XPSR)  returns 0x61000000 (0000ms, 0921ms total)
T4858 056:187 JLINK_ClrBPEx(BPHandle = 0x00000008)  returns 0x00 (0000ms, 0921ms total)
T4858 056:187 JLINK_ClrBPEx(BPHandle = 0x00000009)  returns 0x00 (0000ms, 0921ms total)
T4858 056:187 JLINK_ReadMemU32(0xE000ED30, 0x0001 Items, ...) -- CPU_ReadMem(4 bytes @ 0xE000ED30) -- Data:  02 00 00 00  returns 0x01 (0002ms, 0923ms total)
T4858 056:189 JLINK_ReadMemU32(0xE0001028, 0x0001 Items, ...) -- CPU_ReadMem(4 bytes @ 0xE0001028) -- Data:  00 00 00 00  returns 0x01 (0002ms, 0925ms total)
T4858 056:191 JLINK_ReadMemU32(0xE0001038, 0x0001 Items, ...) -- CPU_ReadMem(4 bytes @ 0xE0001038) -- Data:  00 02 00 00  returns 0x01 (0002ms, 0927ms total)
T4858 056:193 JLINK_ReadMemU32(0xE0001048, 0x0001 Items, ...) -- CPU_ReadMem(4 bytes @ 0xE0001048) -- Data:  00 00 00 00  returns 0x01 (0003ms, 0930ms total)
T4858 056:196 JLINK_ReadMemU32(0xE0001058, 0x0001 Items, ...) -- CPU_ReadMem(4 bytes @ 0xE0001058) -- Data:  00 00 00 00  returns 0x01 (0001ms, 0931ms total)
T4858 056:197 JLINK_ReadReg(R0)  returns 0x00000000 (0000ms, 0931ms total)
T4858 056:197 JLINK_ReadReg(R1)  returns 0x20009E59 (0000ms, 0931ms total)
T4858 056:197 JLINK_ReadReg(R2)  returns 0x76FF04A0 (0000ms, 0931ms total)
T4858 056:197 JLINK_ReadReg(R3)  returns 0x0000CE19 (0000ms, 0931ms total)
T4858 056:197 JLINK_ReadReg(R4)  returns 0x00000000 (0000ms, 0931ms total)
T4858 056:197 JLINK_ReadReg(R5)  returns 0x2000ED74 (0000ms, 0931ms total)
T4858 056:197 JLINK_ReadReg(R6)  returns 0x00000000 (0000ms, 0931ms total)
T4858 056:197 JLINK_ReadReg(R7)  returns 0x00000000 (0000ms, 0931ms total)
T4858 056:197 JLINK_ReadReg(R8)  returns 0x00000000 (0000ms, 0931ms total)
T4858 056:197 JLINK_ReadReg(R9)  returns 0x73435782 (0000ms, 0931ms total)
T4858 056:197 JLINK_ReadReg(R10)  returns 0x08010910 (0000ms, 0931ms total)
T4858 056:197 JLINK_ReadReg(R11)  returns 0x00000000 (0000ms, 0931ms total)
T4858 056:197 JLINK_ReadReg(R12)  returns 0x00000020 (0000ms, 0931ms total)
T4858 056:197 JLINK_ReadReg(R13)  returns 0x2000F3D8 (0000ms, 0931ms total)
T4858 056:197 JLINK_ReadReg(R14)  returns 0x0800781D (0000ms, 0931ms total)
T4858 056:197 JLINK_ReadReg(R15)  returns 0x0800A656 (0000ms, 0931ms total)
T4858 056:197 JLINK_ReadReg(XPSR)  returns 0x61000000 (0000ms, 0931ms total)
T4858 056:197 JLINK_ReadReg(MSP)  returns 0x2000F3D8 (0000ms, 0931ms total)
T4858 056:197 JLINK_ReadReg(PSP)  returns 0x5F038578 (0000ms, 0931ms total)
T4858 056:197 JLINK_ReadReg(CFBP)  returns 0x00000000 (0000ms, 0931ms total)
T207C 056:201 JLINK_ReadMemU32(0xE0001004, 0x0001 Items, ...) -- CPU_ReadMem(4 bytes @ 0xE0001004) -- Data:  69 C2 54 04  returns 0x01 (0001ms, 0932ms total)
T207C 056:203 JLINK_ReadMem (0x0800A652, 0x0002 Bytes, ...) -- CPU_ReadMem(64 bytes @ 0x0800A640) -- Updating C cache (64 bytes @ 0x0800A640) -- Read from C cache (2 bytes @ 0x0800A652) -- Data:  FD F7  returns 0x00 (0003ms, 0935ms total)
T207C 056:206 JLINK_ReadMem (0x0800A654, 0x003C Bytes, ...) -- CPU_ReadMem(64 bytes @ 0x0800A680) -- Updating C cache (64 bytes @ 0x0800A680) -- Read from C cache (60 bytes @ 0x0800A654) -- Data:  DF F8 0F 48 D0 F8 48 03 28 B1 FB F7 A1 FE 00 20 ...  returns 0x00 (0003ms, 0938ms total)
